/OUT1 X,/OUT1 Y,/OUT2 X,/OUT2 Y,/OUT0 X,/OUT0 Y,/OUT2' X,/OUT2' Y,/OUT1' X,/OUT1' Y,/OUT0' X,/OUT0' Y,/I0/VQ X,/I0/VQ Y,/OUT3 X,/OUT3 Y
0,5.634197955108119e-07,0,5.634197355278852e-07,0,0.0724886363308023,0,1.799999998063492,0,1.799999998063492,0,0.0724886363308023,0,0.8999999999954411,0,5.092951593255325e-07
1e-08,1.395538863995826,1e-08,-0.001569790216953952,1e-08,-0.008913333820394172,1e-08,1.799831617436036,1e-08,-0.01391742092459777,1e-08,1.845004094869112,1e-08,0.8999897117142659,1e-08,-1.544271476470253e-05
2e-08,1.83154317728945,2e-08,1.799937395945401,2e-08,0.002167162403277623,2e-08,-1.365375976445499e-07,2e-08,0.0001353556277204394,2e-08,1.739777682901265,2e-08,0.9091683173840567,2e-08,1.587251572754371e-05
3e-08,1.805646808728533,3e-08,0.0003015570577334951,3e-08,1.232062009715934,3e-08,1.799997444577587,3e-08,0.0004350551527215984,3e-08,0.5877862107448051,3e-08,0.922767694394043,3e-08,1.79994336804154
4e-08,1.797511322998355,4e-08,1.79976547139113,4e-08,1.791398425676385,4e-08,1.711601025874428e-06,4e-08,0.000250925610773624,4e-08,-0.001610105249779736,4e-08,0.9335180634630686,4e-08,1.799902731945809
5e-08,1.785932511513266,5e-08,0.001138764555742702,5e-08,1.471326537375366,5e-08,1.799679775786362,5e-08,0.08200870726024034,5e-08,0.09768049475814583,5e-08,0.9455327505925177,5e-08,0.0002340364965286433
5.999999999999999e-08,1.511884922756881,5.999999999999999e-08,1.792244109269619,5.999999999999999e-08,-0.0290600761867044,5.999999999999999e-08,0.005141555143564533,5.999999999999999e-08,1.603943969224046,5.999999999999999e-08,1.858874444920068,5.999999999999999e-08,0.9605318861665811,5.999999999999999e-08,0.0002555141882092121
6.999999999999999e-08,0.4916601216605904,6.999999999999999e-08,0.001660928720002543,6.999999999999999e-08,0.0009683956658212288,6.999999999999999e-08,1.667102185722,6.999999999999999e-08,1.825989415018698,6.999999999999999e-08,1.771609167136253,6.999999999999999e-08,0.9762108682145132,6.999999999999999e-08,0.3937534485711358
7.999999999999999e-08,-0.01030282611600561,7.999999999999999e-08,1.154711600270848,7.999999999999999e-08,0.1824788719815495,7.999999999999999e-08,1.838615133412661,7.999999999999999e-08,1.797126135870571,7.999999999999999e-08,1.416191095913953,7.999999999999999e-08,0.9913379917762316,7.999999999999999e-08,1.797410458988541
8.999999999999999e-08,0.006549603963733767,8.999999999999999e-08,1.112242957223798,8.999999999999999e-08,1.772289425827227,8.999999999999999e-08,-0.01840810498842642,8.999999999999999e-08,1.740911116680584,8.999999999999999e-08,0.07468455481257585,8.999999999999999e-08,1.005515254881937,8.999999999999999e-08,1.840877645679513
9.999999999999998e-08,0.02705500619658583,9.999999999999998e-08,-0.01367058699381253,9.999999999999998e-08,1.799536654363408,9.999999999999998e-08,1.799853499851616,9.999999999999998e-08,1.501283161881844,9.999999999999998e-08,-0.003701239660367756,9.999999999999998e-08,1.021199131441531,9.999999999999998e-08,0.0001060084539414474
1.1e-07,0.3561023977027324,1.1e-07,1.830644748199123,1.1e-07,1.731976846923013,1.1e-07,-0.000240608631590142,1.1e-07,0.5830196513019047,1.1e-07,0.003162478937609892,1.1e-07,1.03758815614725,1.1e-07,-8.934610386086256e-05
1.2e-07,0.5995269393599991,1.2e-07,0.001552480898047659,1.2e-07,1.461870959956194,1.2e-07,1.800184200613362,1.2e-07,0.1933009966313461,1.2e-07,0.1340556348930198,1.2e-07,1.053950388798349,1.2e-07,1.799942953038182
1.3e-07,0.9706487549233034,1.3e-07,1.818527373386645,1.3e-07,0.8072108498736873,1.3e-07,0.0004192449152320697,1.3e-07,-0.001634891803269776,1.3e-07,1.024607995763362,1.3e-07,1.067878891577084,1.3e-07,1.800057143023793
1.4e-07,1.270307425419279,1.4e-07,-0.002172549017034732,1.4e-07,0.1253769335938607,1.4e-07,1.799809232688698,1.4e-07,-0.0178699592394431,1.4e-07,1.741213360445623,1.4e-07,1.08337626191314,1.4e-07,-8.445721580993799e-06
1.5e-07,1.55203763323011,1.5e-07,1.797916945176943,1.5e-07,-0.0367437129216272,1.5e-07,-2.855550337284586e-05,1.5e-07,-0.009523270877164652,1.5e-07,1.863286331047602,1.5e-07,1.099305463345412,1.5e-07,1.258832536476768e-05
1.6e-07,1.657114721006771,1.6e-07,-0.0003435895824200389,1.6e-07,-0.02150898985774127,1.6e-07,1.799929369915048,1.6e-07,-0.006011823906672527,1.6e-07,1.834681115908734,1.6e-07,1.115825745903754,1.6e-07,1.799772972172103
1.7e-07,1.728284891943416,1.7e-07,1.799001135254366,1.7e-07,-0.01252396339325837,1.7e-07,-3.384436685363389e-05,1.7e-07,-0.003905444638665673,1.7e-07,1.81909556361414,1.7e-07,1.126678657135446,1.7e-07,1.799954594647667
1.800000000000001e-07,1.740413250731221,1.800000000000001e-07,-0.0001768372980061616,1.800000000000001e-07,-0.008124740884792514,1.800000000000001e-07,1.799945340164762,1.800000000000001e-07,-0.003415464663384457,1.800000000000001e-07,1.811018810412154,1.800000000000001e-07,1.115356934958835,1.800000000000001e-07,3.789797667786384e-06
1.900000000000001e-07,1.811449988349264,1.900000000000001e-07,1.799746158967455,1.900000000000001e-07,-0.0005986097343632021,1.900000000000001e-07,-7.27940230240656e-06,1.900000000000001e-07,-0.0009891041880601345,1.900000000000001e-07,1.785541520907067,1.900000000000001e-07,1.061564120096551,1.900000000000001e-07,1.061733024664549e-05
2.000000000000001e-07,1.830306387845885,2.000000000000001e-07,0.0001419463665108971,2.000000000000001e-07,0.007167773813590553,2.000000000000001e-07,1.79999349600082,2.000000000000001e-07,0.0001910957430505181,2.000000000000001e-07,1.691308129635715,2.000000000000001e-07,1.014244787333987,2.000000000000001e-07,1.799958120300938
2.100000000000001e-07,1.811543473223211,2.100000000000001e-07,1.800005943011587,2.100000000000001e-07,0.9738414661779129,2.100000000000001e-07,5.41172832607148e-06,2.100000000000001e-07,0.0005336898134999863,2.100000000000001e-07,0.8178652752886633,2.100000000000001e-07,0.9629843402774509,2.100000000000001e-07,1.799953317410822
2.200000000000001e-07,1.799169660679675,2.200000000000001e-07,0.0004993068833194762,2.200000000000001e-07,1.811278598826159,2.200000000000001e-07,1.799975091066021,2.200000000000001e-07,0.0002098132015948837,2.200000000000001e-07,-0.007876493176437212,2.200000000000001e-07,0.9335104351217532,2.200000000000001e-07,1.618188535590254e-05
2.300000000000001e-07,1.787958770787329,2.300000000000001e-07,1.800476503677493,2.300000000000001e-07,1.577908738605381,2.300000000000001e-07,8.924531621318455e-05,2.300000000000001e-07,0.02524421022459445,2.300000000000001e-07,0.03554886057992661,2.300000000000001e-07,0.912433847760561,2.300000000000001e-07,0.0001746801226487914
2.400000000000001e-07,1.504156939194691,2.400000000000001e-07,-0.0008082903203498375,2.400000000000001e-07,-0.03847444906772682,2.400000000000001e-07,1.791613576860216,2.400000000000001e-07,1.687827250059841,2.400000000000001e-07,1.870101906165087,2.400000000000001e-07,0.900410138894988,2.400000000000001e-07,1.674250132313637
2.500000000000001e-07,0.12023690058745,2.500000000000001e-07,1.620982691911418,2.500000000000001e-07,0.00553930983421803,2.500000000000001e-07,1.348356655389318,2.500000000000001e-07,1.808253313797604,2.500000000000001e-07,1.713233007499694,2.500000000000001e-07,0.8945877494806673,2.500000000000001e-07,1.794996948896685
2.600000000000001e-07,0.005668451220553455,2.600000000000001e-07,1.024659798217805,2.600000000000001e-07,1.699080243926379,2.600000000000001e-07,-0.01489095595781074,2.600000000000001e-07,1.756216052260769,2.600000000000001e-07,0.1540968915104511,2.600000000000001e-07,0.8935547823369032,2.600000000000001e-07,1.850615508302947
2.700000000000001e-07,0.1374284169541279,2.700000000000001e-07,-0.01145519027550181,2.700000000000001e-07,1.758130977367873,2.700000000000001e-07,1.799302893825364,2.700000000000001e-07,0.9885480330832864,2.700000000000001e-07,0.001334337006681572,2.700000000000001e-07,0.8923419070127768,2.700000000000001e-07,-3.609428915714619e-05
2.800000000000001e-07,1.03490467651188,2.800000000000001e-07,1.816117503262045,2.800000000000001e-07,0.6006451681327784,2.800000000000001e-07,0.0004623426915934692,2.800000000000001e-07,-0.01241660245477729,2.800000000000001e-07,1.270440586619322,2.800000000000001e-07,0.8918400368596305,2.800000000000001e-07,6.313628353419914e-05
2.900000000000001e-07,1.817370393342293,2.900000000000001e-07,3.934494222572165e-05,2.900000000000001e-07,0.0003251922084519342,2.900000000000001e-07,1.799981907295387,2.900000000000001e-07,-0.0008488544515136741,2.900000000000001e-07,1.781328348611492,2.900000000000001e-07,0.8916253532286296,2.900000000000001e-07,1.800133993555316
3.000000000000001e-07,1.816684783890485,3.000000000000001e-07,1.799974977165742,3.000000000000001e-07,0.6327124792782296,3.000000000000001e-07,-4.826615425209296e-09,3.000000000000001e-07,0.000422999325531842,3.000000000000001e-07,1.069641357994326,3.000000000000001e-07,0.8912268697193135,3.000000000000001e-07,1.799951132976912
3.100000000000002e-07,1.799023596431015,3.100000000000002e-07,0.0005196261120702828,3.100000000000002e-07,1.803633049923516,3.100000000000002e-07,1.799972606544505,3.100000000000002e-07,0.0002610678132436656,3.100000000000002e-07,-0.005275076076496858,3.100000000000002e-07,0.8919976804420218,3.100000000000002e-07,1.644553531689746e-05
3.200000000000002e-07,1.781183279913099,3.200000000000002e-07,1.800729058801976,3.200000000000002e-07,1.435354041670065,3.200000000000002e-07,0.0001392693955672714,3.200000000000002e-07,0.08463286301113171,3.200000000000002e-07,0.1244543432992647,3.200000000000002e-07,0.8929911454370361,3.200000000000002e-07,0.0001984555033896337
3.300000000000002e-07,1.309851691819845,3.300000000000002e-07,-0.000257658829510943,3.300000000000002e-07,-0.02249377809998411,3.300000000000002e-07,1.783905224238899,3.300000000000002e-07,1.816130453386395,3.300000000000002e-07,1.839532843763371,3.300000000000002e-07,0.8947454898871465,3.300000000000002e-07,1.546558479782076
3.400000000000002e-07,0.03136656499758854,3.400000000000002e-07,1.490179726649777,3.400000000000002e-07,0.02301942769999652,3.400000000000002e-07,1.637160617092187,3.400000000000002e-07,1.802153571203026,3.400000000000002e-07,1.637039537882024,3.400000000000002e-07,0.8971969626733688,3.400000000000002e-07,1.790543734643372
3.500000000000002e-07,0.006842520214771371,3.500000000000002e-07,1.240387352407749,3.500000000000002e-07,1.861020346649523,3.500000000000002e-07,-0.01870454238033861,3.500000000000002e-07,1.720343622975551,3.500000000000002e-07,-0.02545180486729538,3.500000000000002e-07,0.9003288013785193,3.500000000000002e-07,1.823623261728217
3.600000000000002e-07,0.224449052838875,3.600000000000002e-07,-0.008292214547659604,3.600000000000002e-07,1.731387906297018,3.600000000000002e-07,1.799255084550378,3.600000000000002e-07,0.7652298588378319,3.600000000000002e-07,0.003178974554390986,3.600000000000002e-07,0.903397624567597,3.600000000000002e-07,-5.209405677679145e-05
3.700000000000002e-07,1.14316225555313,3.700000000000002e-07,1.811115853591479,3.700000000000002e-07,0.3788313141428596,3.700000000000002e-07,0.0004498782606169502,3.700000000000002e-07,-0.0187206120559483,3.700000000000002e-07,1.503650154713524,3.700000000000002e-07,0.907398077307899,3.700000000000002e-07,9.959484379561003e-05
3.800000000000002e-07,1.822765745869543,3.800000000000002e-07,5.419141301587397e-05,3.800000000000002e-07,0.0006502106409337193,3.800000000000002e-07,1.799984461191372,3.800000000000002e-07,-0.0005971651256407484,3.800000000000002e-07,1.777488093511674,3.800000000000002e-07,0.913745364277889,3.800000000000002e-07,1.800106213285435
3.900000000000002e-07,1.817379485679885,3.900000000000002e-07,1.79996711181636,3.900000000000002e-07,0.5697364331318513,3.900000000000002e-07,-8.701061887651146e-07,3.900000000000002e-07,0.0003973066723319281,3.900000000000002e-07,1.113589582165415,3.900000000000002e-07,0.9183419711309193,3.900000000000002e-07,1.799953699349626
4.000000000000002e-07,1.799250959744936,4.000000000000002e-07,0.0004822302745264043,4.000000000000002e-07,1.817312130657521,4.000000000000002e-07,1.799976413998438,4.000000000000002e-07,0.0001810258863365958,4.000000000000002e-07,-0.01082573087479686,4.000000000000002e-07,0.9239951772601289,4.000000000000002e-07,1.465616968147608e-05
4.100000000000003e-07,1.789705215029003,4.100000000000003e-07,1.800395986246717,4.100000000000003e-07,1.617208494995887,4.100000000000003e-07,7.734220392808017e-05,4.100000000000003e-07,0.01610572368050391,4.100000000000003e-07,0.02200816962638198,4.100000000000003e-07,0.9293301568725937,4.100000000000003e-07,0.0001654140947519392
4.200000000000003e-07,1.615319551774647,4.200000000000003e-07,-0.001936382600435295,4.200000000000003e-07,0.04584345644603282,4.200000000000003e-07,1.794860953078339,4.200000000000003e-07,1.47573287568627,4.200000000000003e-07,1.776732530068918,4.200000000000003e-07,0.9376939539278628,4.200000000000003e-07,1.715463729485311
4.300000000000003e-07,0.4221325243736382,4.300000000000003e-07,1.731247244717584,4.300000000000003e-07,0.001005668050169953,4.300000000000003e-07,0.71962862407359,4.300000000000003e-07,1.824909199353729,4.300000000000003e-07,1.771536829496143,4.300000000000003e-07,0.9449937975578938,4.300000000000003e-07,1.802814723735991
4.400000000000003e-07,-0.01397960103390262,4.400000000000003e-07,0.3011298622246014,4.400000000000003e-07,0.4640213987734692,4.400000000000003e-07,0.3226229158676899,4.400000000000003e-07,1.791125720352863,4.400000000000003e-07,1.202236759031702,4.400000000000003e-07,0.9522706699442097,4.400000000000003e-07,1.735096968702038
4.500000000000003e-07,0.007961463349972183,4.500000000000003e-07,0.03472130881478089,4.500000000000003e-07,1.843818380647192,4.500000000000003e-07,1.803218524589696,4.500000000000003e-07,1.693445426564198,4.500000000000003e-07,-0.02639037446510069,4.500000000000003e-07,0.959997715784944,4.500000000000003e-07,0.001175049655761913
4.600000000000003e-07,0.3222848006910163,4.600000000000003e-07,1.829988414557923,4.600000000000003e-07,1.735280266991481,4.600000000000003e-07,-0.0002906474323499948,4.600000000000003e-07,0.6264029200564707,4.600000000000003e-07,0.002880039847792527,4.600000000000003e-07,0.9693992721833047,4.600000000000003e-07,-0.0001000273648288308
4.700000000000003e-07,0.8285793569614308,4.700000000000003e-07,0.0006344575574838793,4.700000000000003e-07,0.9712219297639385,4.700000000000003e-07,1.800255980999687,4.700000000000003e-07,0.02527082618990981,4.700000000000003e-07,0.7981917172294077,4.700000000000003e-07,0.9798846715985856,4.700000000000003e-07,1.799981814192102
4.800000000000003e-07,1.643409898987407,4.800000000000003e-07,1.798210442110257,4.800000000000003e-07,-0.02706352206072542,4.800000000000003e-07,-4.981943415630619e-05,4.800000000000003e-07,-0.006666406389961044,4.800000000000003e-07,1.842298346009213,4.800000000000003e-07,0.988840884280165,4.800000000000003e-07,1.799952107195815
4.900000000000003e-07,1.830179058761889,4.900000000000003e-07,9.848920463679087e-05,4.900000000000003e-07,0.001328932109636954,4.900000000000003e-07,1.799990445689142,4.900000000000003e-07,-8.287135661558896e-05,4.900000000000003e-07,1.757114806888089,4.900000000000003e-07,0.9973134631057146,4.900000000000003e-07,1.447771363099711e-06
5.000000000000003e-07,1.822040440644028,5.000000000000003e-07,1.799961180663821,5.000000000000003e-07,0.1610841092737761,5.000000000000003e-07,-6.911369481687161e-08,5.000000000000003e-07,0.0002365067963845505,5.000000000000003e-07,1.416920476831864,5.000000000000003e-07,1.008290994963734,5.000000000000003e-07,1.911840777979897e-05
5.100000000000003e-07,1.798349083206265,5.100000000000003e-07,0.0003080856305973445,5.100000000000003e-07,1.586252885127017,5.100000000000003e-07,1.799987462836893,5.100000000000003e-07,1.713799767355564e-06,5.100000000000003e-07,0.2577004966331555,5.100000000000003e-07,1.021463966417699,5.100000000000003e-07,1.79992998528283
5.200000000000003e-07,1.798311674180474,5.200000000000003e-07,1.799772412901243,5.200000000000003e-07,1.82258368612897,5.200000000000003e-07,2.253140899499589e-06,5.200000000000003e-07,0.0001103185602316366,5.200000000000003e-07,-0.01409291283692028,5.200000000000003e-07,1.03034477135985,5.200000000000003e-07,1.799917381363859
5.300000000000003e-07,1.797675617764039,5.300000000000003e-07,0.0007146500163648627,5.300000000000003e-07,1.767787502939727,5.300000000000003e-07,1.799948229034415,5.300000000000003e-07,0.001083780964703668,5.300000000000003e-07,0.001008748146612022,5.300000000000003e-07,1.039416592310245,5.300000000000003e-07,5.115091090544691e-05
5.400000000000003e-07,1.790567256877449,5.400000000000003e-07,1.80034643663842,5.400000000000003e-07,1.638526312923353,5.400000000000003e-07,7.672733042406905e-05,5.400000000000003e-07,0.0121666555583773,5.400000000000003e-07,0.01592415205739608,5.400000000000003e-07,1.050634579793942,5.400000000000003e-07,0.0001630793766273988
5.500000000000003e-07,1.774274594449406,5.500000000000003e-07,0.001195907812302968,5.500000000000003e-07,1.218555495586863,5.500000000000003e-07,1.799489070793834,5.500000000000003e-07,0.2981706765555572,5.500000000000003e-07,0.3710876096226325,5.500000000000003e-07,1.063084377667688,5.500000000000003e-07,1.790331129130746
5.600000000000004e-07,1.698818953384466,5.600000000000004e-07,1.799679649058147,5.600000000000004e-07,0.4817307068082958,5.600000000000004e-07,0.0008188048500897711,5.600000000000004e-07,1.012871316777375,5.600000000000004e-07,1.314107592779731,5.600000000000004e-07,1.0736301971462,5.600000000000004e-07,1.799473917809258
5.700000000000004e-07,1.570132125648469,5.700000000000004e-07,-0.001396629142046362,5.700000000000004e-07,-0.01637653012460005,5.700000000000004e-07,1.790511901735739,5.700000000000004e-07,1.580104876858484,5.700000000000004e-07,1.844200974335582,5.700000000000004e-07,1.082988514393984,5.700000000000004e-07,0.005739157177093151
5.800000000000004e-07,1.269876038468834,5.800000000000004e-07,1.787619115071686,5.800000000000004e-07,-0.02398151488549899,5.800000000000004e-07,0.04284285756826757,5.800000000000004e-07,1.809043188721381,5.800000000000004e-07,1.841870463056417,5.800000000000004e-07,1.093982799794321,5.800000000000004e-07,0.0005648814016026451
5.900000000000004e-07,1.057716383768216,5.900000000000004e-07,-0.0002010903056404082,5.900000000000004e-07,-0.006780109946373041,5.900000000000004e-07,1.761970834421056,5.900000000000004e-07,1.849031168573436,5.900000000000004e-07,1.809341647048575,5.900000000000004e-07,1.105624872017203,5.900000000000004e-07,1.181813408309073
6.000000000000004e-07,0.7629744217995704,6.000000000000004e-07,1.760603699460994,6.000000000000004e-07,-0.001787894897908931,6.000000000000004e-07,0.3231091847823133,6.000000000000004e-07,1.842877099146564,6.000000000000004e-07,1.79297176573838,6.000000000000004e-07,1.115489669778367,6.000000000000004e-07,1.800624931557822
6.100000000000004e-07,0.6958448349155127,6.100000000000004e-07,0.0003222551657086038,6.100000000000004e-07,-5.145496760121957e-05,6.100000000000004e-07,1.683014367975779,6.100000000000004e-07,1.835643868754845,6.100000000000004e-07,1.784137020455429,6.100000000000004e-07,1.123739940026115,6.100000000000004e-07,0.01696494047372249
6.200000000000004e-07,0.5462221287255817,6.200000000000004e-07,1.737576199655206,6.200000000000004e-07,0.0005098495646899265,6.200000000000004e-07,0.8237974490541411,6.200000000000004e-07,1.831260124802052,6.200000000000004e-07,1.779239688920855,6.200000000000004e-07,1.133675162865485,6.200000000000004e-07,0.001191249151565236
6.300000000000004e-07,0.6017939439125961,6.300000000000004e-07,0.0007760019145280519,6.300000000000004e-07,0.0005917496598920901,6.300000000000004e-07,1.680688576528033,6.300000000000004e-07,1.831099668050249,6.300000000000004e-07,1.778235110753424,6.300000000000004e-07,1.144244166800997,6.300000000000004e-07,0.4606650914163344
